TIME,V(VI),V(VO)
0.00000000e+00,0.00000000e+00,9.99987771e-01
1.00000000e-11,1.11111111e-01,1.00039132e+00
2.00000000e-11,2.22222222e-01,9.99996620e-01
3.00000000e-11,3.33333333e-01,9.98222787e-01
4.00000000e-11,4.44444444e-01,9.91937884e-01
5.00000000e-11,5.55555556e-01,9.78311133e-01
6.00000000e-11,6.66666667e-01,9.56954906e-01
7.00000000e-11,7.77777778e-01,9.25513452e-01
8.00000000e-11,8.88888889e-01,8.83608361e-01
9.00000000e-11,1.00000000e+00,8.32929090e-01
1.00000000e-10,1.00000000e+00,7.76530593e-01
1.10000000e-10,1.00000000e+00,7.21113078e-01
1.20000000e-10,1.00000000e+00,6.66496139e-01
1.30000000e-10,1.00000000e+00,6.13327755e-01
1.40000000e-10,1.00000000e+00,5.60930963e-01
1.50000000e-10,1.00000000e+00,5.11133861e-01
1.60000000e-10,1.00000000e+00,4.62813044e-01
1.70000000e-10,1.00000000e+00,4.16590348e-01
1.80000000e-10,1.00000000e+00,3.73706727e-01
1.90000000e-10,1.00000000e+00,3.32435572e-01
2.00000000e-10,1.00000000e+00,2.95475584e-01
2.10000000e-10,1.00000000e+00,2.60979772e-01
2.20000000e-10,1.00000000e+00,2.29179806e-01
2.30000000e-10,1.00000000e+00,2.01591319e-01
2.40000000e-10,1.00000000e+00,1.75725946e-01
2.50000000e-10,1.00000000e+00,1.53659238e-01
2.60000000e-10,1.00000000e+00,1.33824435e-01
2.70000000e-10,1.00000000e+00,1.15874972e-01
2.80000000e-10,1.00000000e+00,1.01066189e-01
2.90000000e-10,1.00000000e+00,8.73496743e-02
3.00000000e-10,1.00000000e+00,7.58066088e-02
3.10000000e-10,1.00000000e+00,6.57005157e-02
3.20000000e-10,1.00000000e+00,5.65262556e-02
3.30000000e-10,1.00000000e+00,4.91876852e-02
3.40000000e-10,1.00000000e+00,4.24055833e-02
3.50000000e-10,1.00000000e+00,3.66672343e-02
3.60000000e-10,1.00000000e+00,3.17437258e-02
3.70000000e-10,1.00000000e+00,2.72444689e-02
3.80000000e-10,1.00000000e+00,2.36820587e-02
3.90000000e-10,1.00000000e+00,2.03135941e-02
4.00000000e-10,8.88888889e-01,1.73006460e-02
4.10000000e-10,7.77777778e-01,1.48834645e-02
4.20000000e-10,6.66666667e-01,1.40066257e-02
4.30000000e-10,5.55555556e-01,1.50224164e-02
4.40000000e-10,4.44444444e-01,1.60382072e-02
4.50000000e-10,3.33333333e-01,2.26025857e-02
4.60000000e-10,2.22222222e-01,3.68059246e-02
4.70000000e-10,1.11111111e-01,6.01368981e-02
4.80000000e-10,0.00000000e+00,9.32480482e-02
4.90000000e-10,0.00000000e+00,1.31012944e-01
5.00000000e-10,0.00000000e+00,1.68140085e-01
5.10000000e-10,0.00000000e+00,2.04794868e-01
5.20000000e-10,0.00000000e+00,2.40733181e-01
5.30000000e-10,0.00000000e+00,2.76306266e-01
5.40000000e-10,0.00000000e+00,3.10862675e-01
5.50000000e-10,0.00000000e+00,3.44937721e-01
5.60000000e-10,0.00000000e+00,3.78338658e-01
5.70000000e-10,0.00000000e+00,4.10787509e-01
5.80000000e-10,0.00000000e+00,4.42787588e-01
5.90000000e-10,0.00000000e+00,4.73641538e-01
6.00000000e-10,0.00000000e+00,5.03820476e-01
6.10000000e-10,0.00000000e+00,5.33277820e-01
6.20000000e-10,0.00000000e+00,5.61494640e-01
6.30000000e-10,0.00000000e+00,5.89170182e-01
6.40000000e-10,0.00000000e+00,6.15590475e-01
6.50000000e-10,0.00000000e+00,6.41112479e-01
6.60000000e-10,0.00000000e+00,6.65899675e-01
6.70000000e-10,0.00000000e+00,6.89146900e-01
6.80000000e-10,0.00000000e+00,7.11774929e-01
6.90000000e-10,0.00000000e+00,7.33105496e-01
7.00000000e-10,0.00000000e+00,7.53329435e-01
7.10000000e-10,0.00000000e+00,7.72865800e-01
7.20000000e-10,0.00000000e+00,7.90644866e-01
7.30000000e-10,0.00000000e+00,8.07787246e-01
7.40000000e-10,0.00000000e+00,8.23727181e-01
7.50000000e-10,0.00000000e+00,8.38479686e-01
7.60000000e-10,0.00000000e+00,8.52617740e-01
7.70000000e-10,0.00000000e+00,8.65166964e-01
7.80000000e-10,0.00000000e+00,8.77106931e-01
7.90000000e-10,0.00000000e+00,8.88112407e-01
8.00000000e-10,0.00000000e+00,8.98055235e-01
8.10000000e-10,0.00000000e+00,9.07508866e-01
8.20000000e-10,0.00000000e+00,9.15818048e-01
8.30000000e-10,0.00000000e+00,9.23600381e-01
8.40000000e-10,0.00000000e+00,9.30767691e-01
8.50000000e-10,0.00000000e+00,9.37111423e-01
8.60000000e-10,0.00000000e+00,9.43118377e-01
8.70000000e-10,0.00000000e+00,9.48395133e-01
8.80000000e-10,0.00000000e+00,9.53102653e-01
8.90000000e-10,0.00000000e+00,9.57301551e-01
9.00000000e-10,0.00000000e+00,9.61500448e-01
9.10000000e-10,0.00000000e+00,9.65422105e-01
9.20000000e-10,0.00000000e+00,9.68462313e-01
9.30000000e-10,0.00000000e+00,9.71502521e-01
9.40000000e-10,0.00000000e+00,9.74542728e-01
9.50000000e-10,0.00000000e+00,9.76774635e-01
9.60000000e-10,0.00000000e+00,9.78964378e-01
9.70000000e-10,0.00000000e+00,9.81154121e-01
9.80000000e-10,0.00000000e+00,9.82963892e-01
9.90000000e-10,0.00000000e+00,9.84579290e-01
1.00000000e-09,0.00000000e+00,9.86194688e-01
1.01000000e-09,1.11111111e-01,9.87832568e-01
1.02000000e-09,2.22222222e-01,9.88552168e-01
1.03000000e-09,3.33333333e-01,9.87174742e-01
1.04000000e-09,4.44444444e-01,9.82123234e-01
1.05000000e-09,5.55555556e-01,9.69627869e-01
1.06000000e-09,6.66666667e-01,9.47499823e-01
1.07000000e-09,7.77777778e-01,9.15858245e-01
1.08000000e-09,8.88888889e-01,8.73991851e-01
1.09000000e-09,1.00000000e+00,8.23359608e-01
1.10000000e-09,1.00000000e+00,7.67091354e-01
1.11000000e-09,1.00000000e+00,7.11829238e-01
1.12000000e-09,1.00000000e+00,6.57429615e-01
1.13000000e-09,1.00000000e+00,6.04469390e-01
1.14000000e-09,1.00000000e+00,5.52236917e-01
1.15000000e-09,1.00000000e+00,5.02901824e-01
1.16000000e-09,1.00000000e+00,4.54827478e-01
1.17000000e-09,1.00000000e+00,4.09230740e-01
1.18000000e-09,1.00000000e+00,3.66668079e-01
1.19000000e-09,1.00000000e+00,3.25624386e-01
1.20000000e-09,1.00000000e+00,2.89571294e-01
1.21000000e-09,1.00000000e+00,2.55321278e-01
1.22000000e-09,1.00000000e+00,2.24492944e-01
1.23000000e-09,1.00000000e+00,1.97110849e-01
1.24000000e-09,1.00000000e+00,1.71421258e-01
1.25000000e-09,1.00000000e+00,1.50274328e-01
1.26000000e-09,1.00000000e+00,1.30550169e-01
1.27000000e-09,1.00000000e+00,1.13434220e-01
1.28000000e-09,1.00000000e+00,9.86607123e-02
1.29000000e-09,1.00000000e+00,8.50146317e-02
1.30000000e-09,1.00000000e+00,7.41005898e-02
1.31000000e-09,1.00000000e+00,6.40062553e-02
1.32000000e-09,1.00000000e+00,5.53640364e-02
1.33000000e-09,1.00000000e+00,4.79914954e-02
1.34000000e-09,1.00000000e+00,4.12189897e-02
1.35000000e-09,1.00000000e+00,3.58498916e-02
1.36000000e-09,1.00000000e+00,3.09045353e-02
1.37000000e-09,1.00000000e+00,2.66848139e-02
1.38000000e-09,1.00000000e+00,2.31105578e-02
1.39000000e-09,1.00000000e+00,1.98068798e-02
1.40000000e-09,8.88888889e-01,1.68603527e-02
1.41000000e-09,7.77777778e-01,1.44970821e-02
1.42000000e-09,6.66666667e-01,1.36513071e-02
1.43000000e-09,5.55555556e-01,1.47698095e-02
1.44000000e-09,4.44444444e-01,1.58883120e-02
1.45000000e-09,3.33333333e-01,2.23953383e-02
1.46000000e-09,2.22222222e-01,3.65707381e-02
1.47000000e-09,1.11111111e-01,5.99276190e-02
1.48000000e-09,-2.22044605e-15,9.30483451e-02
1.49000000e-09,0.00000000e+00,1.30816010e-01
1.50000000e-09,0.00000000e+00,1.67945718e-01
1.51000000e-09,0.00000000e+00,2.04607035e-01
1.52000000e-09,0.00000000e+00,2.40546280e-01
1.53000000e-09,0.00000000e+00,2.76116780e-01
1.54000000e-09,0.00000000e+00,3.10685697e-01
1.55000000e-09,0.00000000e+00,3.44757491e-01
1.56000000e-09,0.00000000e+00,3.78174487e-01
1.57000000e-09,0.00000000e+00,4.10619468e-01
1.58000000e-09,0.00000000e+00,4.42610734e-01
1.59000000e-09,0.00000000e+00,4.73489069e-01
1.60000000e-09,0.00000000e+00,5.03658250e-01
1.61000000e-09,0.00000000e+00,5.33144728e-01
1.62000000e-09,0.00000000e+00,5.61350866e-01
1.63000000e-09,0.00000000e+00,5.89009412e-01
1.64000000e-09,0.00000000e+00,6.15469298e-01
1.65000000e-09,0.00000000e+00,6.40973095e-01
1.66000000e-09,0.00000000e+00,6.65805443e-01
1.67000000e-09,0.00000000e+00,6.89033196e-01
1.68000000e-09,0.00000000e+00,7.11634862e-01
1.69000000e-09,0.00000000e+00,7.33021642e-01
1.70000000e-09,0.00000000e+00,7.53217875e-01
1.71000000e-09,0.00000000e+00,7.72770858e-01
1.72000000e-09,0.00000000e+00,7.90565168e-01
1.73000000e-09,0.00000000e+00,8.07673472e-01
1.74000000e-09,0.00000000e+00,8.23681376e-01
1.75000000e-09,0.00000000e+00,8.38398855e-01
1.76000000e-09,0.00000000e+00,8.52501001e-01
1.77000000e-09,0.00000000e+00,8.65119115e-01
1.78000000e-09,0.00000000e+00,8.77023270e-01
1.79000000e-09,0.00000000e+00,8.88095875e-01
1.80000000e-09,0.00000000e+00,8.98002802e-01
1.81000000e-09,0.00000000e+00,9.07424236e-01
1.82000000e-09,0.00000000e+00,9.15793804e-01
1.83000000e-09,0.00000000e+00,9.23544530e-01
1.84000000e-09,0.00000000e+00,9.30767880e-01
1.85000000e-09,0.00000000e+00,9.37080582e-01
1.86000000e-09,0.00000000e+00,9.43061866e-01
1.87000000e-09,0.00000000e+00,9.48385362e-01
1.88000000e-09,0.00000000e+00,9.53038772e-01
1.89000000e-09,0.00000000e+00,9.57277708e-01
1.90000000e-09,0.00000000e+00,9.61516644e-01
1.91000000e-09,0.00000000e+00,9.65362969e-01
1.92000000e-09,0.00000000e+00,9.68435055e-01
1.93000000e-09,0.00000000e+00,9.71507141e-01
1.94000000e-09,0.00000000e+00,9.74531986e-01
1.95000000e-09,0.00000000e+00,9.76746679e-01
1.96000000e-09,0.00000000e+00,9.78961372e-01
1.97000000e-09,0.00000000e+00,9.81176065e-01
1.98000000e-09,0.00000000e+00,9.82935731e-01
1.99000000e-09,0.00000000e+00,9.84562325e-01
2.00000000e-09,0.00000000e+00,9.86188920e-01
2.01000000e-09,1.11111111e-01,9.87827385e-01
2.02000000e-09,2.22222222e-01,9.88549101e-01
2.03000000e-09,3.33333333e-01,9.87170961e-01
2.04000000e-09,4.44444444e-01,9.82106517e-01
2.05000000e-09,5.55555556e-01,9.69649942e-01
2.06000000e-09,6.66666667e-01,9.47513910e-01
2.07000000e-09,7.77777778e-01,9.15868453e-01
2.08000000e-09,8.88888889e-01,8.74000838e-01
2.09000000e-09,1.00000000e+00,8.23358209e-01
2.10000000e-09,1.00000000e+00,7.67089971e-01
2.11000000e-09,1.00000000e+00,7.11827869e-01
2.12000000e-09,1.00000000e+00,6.57428345e-01
2.13000000e-09,1.00000000e+00,6.04468107e-01
2.14000000e-09,1.00000000e+00,5.52235474e-01
2.15000000e-09,1.00000000e+00,5.02900719e-01
2.16000000e-09,1.00000000e+00,4.54826164e-01
2.17000000e-09,1.00000000e+00,4.09229950e-01
2.18000000e-09,1.00000000e+00,3.66667028e-01
2.19000000e-09,1.00000000e+00,3.25622829e-01
2.20000000e-09,1.00000000e+00,2.89570638e-01
2.21000000e-09,1.00000000e+00,2.55320080e-01
2.22000000e-09,1.00000000e+00,2.24492774e-01
2.23000000e-09,1.00000000e+00,1.97110096e-01
2.24000000e-09,1.00000000e+00,1.71419894e-01
2.25000000e-09,1.00000000e+00,1.50274033e-01
2.26000000e-09,1.00000000e+00,1.30549279e-01
2.27000000e-09,1.00000000e+00,1.13434335e-01
2.28000000e-09,1.00000000e+00,9.86602464e-02
2.29000000e-09,1.00000000e+00,8.50137073e-02
2.30000000e-09,1.00000000e+00,7.41004717e-02
2.31000000e-09,1.00000000e+00,6.40057036e-02
2.32000000e-09,1.00000000e+00,5.53641843e-02
2.33000000e-09,1.00000000e+00,4.79912349e-02
2.34000000e-09,1.00000000e+00,4.12184397e-02
2.35000000e-09,1.00000000e+00,3.58498485e-02
2.36000000e-09,1.00000000e+00,3.09042215e-02
2.37000000e-09,1.00000000e+00,2.66849260e-02
2.38000000e-09,1.00000000e+00,2.31103022e-02
2.39000000e-09,1.00000000e+00,1.98068225e-02
2.40000000e-09,8.88888889e-01,1.68603036e-02
2.41000000e-09,7.77777778e-01,1.44970415e-02
2.42000000e-09,6.66666667e-01,1.36512492e-02
2.43000000e-09,5.55555556e-01,1.47699134e-02
2.44000000e-09,4.44444444e-01,1.58885775e-02
2.45000000e-09,3.33333333e-01,2.23954501e-02
2.46000000e-09,2.22222222e-01,3.65707836e-02
2.47000000e-09,1.11111111e-01,5.99278407e-02
2.48000000e-09,0.00000000e+00,9.30484595e-02
2.49000000e-09,0.00000000e+00,1.30816123e-01
2.50000000e-09,0.00000000e+00,1.67945828e-01
2.51000000e-09,0.00000000e+00,2.04607151e-01
2.52000000e-09,0.00000000e+00,2.40546388e-01
2.53000000e-09,0.00000000e+00,2.76116872e-01
2.54000000e-09,0.00000000e+00,3.10685808e-01
2.55000000e-09,0.00000000e+00,3.44757584e-01
2.56000000e-09,0.00000000e+00,3.78174607e-01
2.57000000e-09,0.00000000e+00,4.10619567e-01
2.58000000e-09,0.00000000e+00,4.42610800e-01
2.59000000e-09,0.00000000e+00,4.73489180e-01
2.60000000e-09,0.00000000e+00,5.03658325e-01
2.61000000e-09,0.00000000e+00,5.33144860e-01
2.62000000e-09,0.00000000e+00,5.61350958e-01
2.63000000e-09,0.00000000e+00,5.89009449e-01
2.64000000e-09,0.00000000e+00,6.15469415e-01
2.65000000e-09,0.00000000e+00,6.40973153e-01
2.66000000e-09,0.00000000e+00,6.65805594e-01
2.67000000e-09,0.00000000e+00,6.89033285e-01
2.68000000e-09,0.00000000e+00,7.11634870e-01
2.69000000e-09,0.00000000e+00,7.33021770e-01
2.70000000e-09,0.00000000e+00,7.53217919e-01
2.71000000e-09,0.00000000e+00,7.72770804e-01
2.72000000e-09,0.00000000e+00,7.90565255e-01
2.73000000e-09,0.00000000e+00,8.07673460e-01
2.74000000e-09,0.00000000e+00,8.23681512e-01
2.75000000e-09,0.00000000e+00,8.38398889e-01
2.76000000e-09,0.00000000e+00,8.52500932e-01
2.77000000e-09,0.00000000e+00,8.65119198e-01
2.78000000e-09,0.00000000e+00,8.77023252e-01
2.79000000e-09,0.00000000e+00,8.88096005e-01
2.80000000e-09,0.00000000e+00,8.98002832e-01
2.81000000e-09,0.00000000e+00,9.07424175e-01
2.82000000e-09,0.00000000e+00,9.15793878e-01
2.83000000e-09,0.00000000e+00,9.23544516e-01
2.84000000e-09,0.00000000e+00,9.30767992e-01
2.85000000e-09,0.00000000e+00,9.37080609e-01
2.86000000e-09,0.00000000e+00,9.43061822e-01
2.87000000e-09,0.00000000e+00,9.48385424e-01
2.88000000e-09,0.00000000e+00,9.53038694e-01
2.89000000e-09,0.00000000e+00,9.57277721e-01
2.90000000e-09,0.00000000e+00,9.61516748e-01
2.91000000e-09,0.00000000e+00,9.65362884e-01
2.92000000e-09,0.00000000e+00,9.68435043e-01
2.93000000e-09,0.00000000e+00,9.71507201e-01
2.94000000e-09,0.00000000e+00,9.74531901e-01
2.95000000e-09,0.00000000e+00,9.76746651e-01
2.96000000e-09,0.00000000e+00,9.78961401e-01
2.97000000e-09,0.00000000e+00,9.81176151e-01
2.98000000e-09,0.00000000e+00,9.82935690e-01
2.99000000e-09,0.00000000e+00,9.84562309e-01
3.00000000e-09,0.00000000e+00,9.86188928e-01
3.01000000e-09,1.11111111e-01,9.87827393e-01
3.02000000e-09,2.22222222e-01,9.88549113e-01
3.03000000e-09,3.33333333e-01,9.87170970e-01
3.04000000e-09,4.44444444e-01,9.82106494e-01
3.05000000e-09,5.55555556e-01,9.69650013e-01
3.06000000e-09,6.66666667e-01,9.47513961e-01
3.07000000e-09,7.77777778e-01,9.15868495e-01
3.08000000e-09,8.88888889e-01,8.74000876e-01
3.09000000e-09,1.00000000e+00,8.23358222e-01
3.10000000e-09,1.00000000e+00,7.67089984e-01
3.11000000e-09,1.00000000e+00,7.11827882e-01
3.12000000e-09,1.00000000e+00,6.57428358e-01
3.13000000e-09,1.00000000e+00,6.04468118e-01
3.14000000e-09,1.00000000e+00,5.52235485e-01
3.15000000e-09,1.00000000e+00,5.02900730e-01
3.16000000e-09,1.00000000e+00,4.54826174e-01
3.17000000e-09,1.00000000e+00,4.09229960e-01
3.18000000e-09,1.00000000e+00,3.66667037e-01
3.19000000e-09,1.00000000e+00,3.25622836e-01
3.20000000e-09,1.00000000e+00,2.89570647e-01
3.21000000e-09,1.00000000e+00,2.55320086e-01
3.22000000e-09,1.00000000e+00,2.24492782e-01
3.23000000e-09,1.00000000e+00,1.97110101e-01
3.24000000e-09,1.00000000e+00,1.71419897e-01
3.25000000e-09,1.00000000e+00,1.50274038e-01
3.26000000e-09,1.00000000e+00,1.30549282e-01
3.27000000e-09,1.00000000e+00,1.13434340e-01
3.28000000e-09,1.00000000e+00,9.86602493e-02
3.29000000e-09,1.00000000e+00,8.50137085e-02
3.30000000e-09,1.00000000e+00,7.41004744e-02
3.31000000e-09,1.00000000e+00,6.40057048e-02
3.32000000e-09,1.00000000e+00,5.53641870e-02
3.33000000e-09,1.00000000e+00,4.79912362e-02
3.34000000e-09,1.00000000e+00,4.12184400e-02
3.35000000e-09,1.00000000e+00,3.58498499e-02
3.36000000e-09,1.00000000e+00,3.09042220e-02
3.37000000e-09,1.00000000e+00,2.66849274e-02
3.38000000e-09,1.00000000e+00,2.31103025e-02
3.39000000e-09,1.00000000e+00,1.98068232e-02
3.40000000e-09,8.88888889e-01,1.68603042e-02
3.41000000e-09,7.77777778e-01,1.44970421e-02
3.42000000e-09,6.66666667e-01,1.36512496e-02
3.43000000e-09,5.55555556e-01,1.47699141e-02
3.44000000e-09,4.44444444e-01,1.58885787e-02
3.45000000e-09,3.33333333e-01,2.23954508e-02
3.46000000e-09,2.22222222e-01,3.65707842e-02
3.47000000e-09,1.11111111e-01,5.99278417e-02
3.48000000e-09,4.55191440e-15,9.30484602e-02
3.49000000e-09,0.00000000e+00,1.30816123e-01
3.50000000e-09,0.00000000e+00,1.67945828e-01
3.51000000e-09,0.00000000e+00,2.04607152e-01
3.52000000e-09,0.00000000e+00,2.40546389e-01
3.53000000e-09,0.00000000e+00,2.76116873e-01
3.54000000e-09,0.00000000e+00,3.10685809e-01
3.55000000e-09,0.00000000e+00,3.44757584e-01
3.56000000e-09,0.00000000e+00,3.78174608e-01
3.57000000e-09,0.00000000e+00,4.10619567e-01
3.58000000e-09,0.00000000e+00,4.42610801e-01
3.59000000e-09,0.00000000e+00,4.73489181e-01
3.60000000e-09,0.00000000e+00,5.03658325e-01
3.61000000e-09,0.00000000e+00,5.33144861e-01
3.62000000e-09,0.00000000e+00,5.61350958e-01
3.63000000e-09,0.00000000e+00,5.89009449e-01
3.64000000e-09,0.00000000e+00,6.15469415e-01
3.65000000e-09,0.00000000e+00,6.40973154e-01
3.66000000e-09,0.00000000e+00,6.65805595e-01
3.67000000e-09,0.00000000e+00,6.89033285e-01
3.68000000e-09,0.00000000e+00,7.11634870e-01
3.69000000e-09,0.00000000e+00,7.33021770e-01
3.70000000e-09,0.00000000e+00,7.53217919e-01
3.71000000e-09,0.00000000e+00,7.72770804e-01
3.72000000e-09,0.00000000e+00,7.90565255e-01
3.73000000e-09,0.00000000e+00,8.07673460e-01
3.74000000e-09,0.00000000e+00,8.23681512e-01
3.75000000e-09,0.00000000e+00,8.38398889e-01
3.76000000e-09,0.00000000e+00,8.52500932e-01
3.77000000e-09,0.00000000e+00,8.65119198e-01
3.78000000e-09,0.00000000e+00,8.77023252e-01
3.79000000e-09,0.00000000e+00,8.88096006e-01
3.80000000e-09,0.00000000e+00,8.98002833e-01
3.81000000e-09,0.00000000e+00,9.07424175e-01
3.82000000e-09,0.00000000e+00,9.15793879e-01
3.83000000e-09,0.00000000e+00,9.23544516e-01
3.84000000e-09,0.00000000e+00,9.30767992e-01
3.85000000e-09,0.00000000e+00,9.37080609e-01
3.86000000e-09,0.00000000e+00,9.43061822e-01
3.87000000e-09,0.00000000e+00,9.48385424e-01
3.88000000e-09,0.00000000e+00,9.53038694e-01
3.89000000e-09,0.00000000e+00,9.57277721e-01
3.90000000e-09,0.00000000e+00,9.61516748e-01
3.91000000e-09,0.00000000e+00,9.65362884e-01
3.92000000e-09,0.00000000e+00,9.68435043e-01
3.93000000e-09,0.00000000e+00,9.71507201e-01
3.94000000e-09,0.00000000e+00,9.74531901e-01
3.95000000e-09,0.00000000e+00,9.76746651e-01
3.96000000e-09,0.00000000e+00,9.78961401e-01
3.97000000e-09,0.00000000e+00,9.81176152e-01
3.98000000e-09,0.00000000e+00,9.82935689e-01
3.99000000e-09,0.00000000e+00,9.84562309e-01
4.00000000e-09,0.00000000e+00,9.86188928e-01
4.01000000e-09,1.11111111e-01,9.87827393e-01
4.02000000e-09,2.22222222e-01,9.88549113e-01
4.03000000e-09,3.33333333e-01,9.87170970e-01
4.04000000e-09,4.44444444e-01,9.82106494e-01
4.05000000e-09,5.55555556e-01,9.69650013e-01
4.06000000e-09,6.66666667e-01,9.47513961e-01
4.07000000e-09,7.77777778e-01,9.15868495e-01
4.08000000e-09,8.88888889e-01,8.74000876e-01
4.09000000e-09,1.00000000e+00,8.23358222e-01
4.10000000e-09,1.00000000e+00,7.67089984e-01
4.11000000e-09,1.00000000e+00,7.11827882e-01
4.12000000e-09,1.00000000e+00,6.57428358e-01
4.13000000e-09,1.00000000e+00,6.04468118e-01
4.14000000e-09,1.00000000e+00,5.52235485e-01
4.15000000e-09,1.00000000e+00,5.02900731e-01
4.16000000e-09,1.00000000e+00,4.54826174e-01
4.17000000e-09,1.00000000e+00,4.09229960e-01
4.18000000e-09,1.00000000e+00,3.66667037e-01
4.19000000e-09,1.00000000e+00,3.25622836e-01
4.20000000e-09,1.00000000e+00,2.89570647e-01
4.21000000e-09,1.00000000e+00,2.55320086e-01
4.22000000e-09,1.00000000e+00,2.24492782e-01
4.23000000e-09,1.00000000e+00,1.97110101e-01
4.24000000e-09,1.00000000e+00,1.71419897e-01
4.25000000e-09,1.00000000e+00,1.50274038e-01
4.26000000e-09,1.00000000e+00,1.30549282e-01
4.27000000e-09,1.00000000e+00,1.13434340e-01
4.28000000e-09,1.00000000e+00,9.86602493e-02
4.29000000e-09,1.00000000e+00,8.50137085e-02
4.30000000e-09,1.00000000e+00,7.41004744e-02
4.31000000e-09,1.00000000e+00,6.40057048e-02
4.32000000e-09,1.00000000e+00,5.53641870e-02
4.33000000e-09,1.00000000e+00,4.79912362e-02
4.34000000e-09,1.00000000e+00,4.12184400e-02
4.35000000e-09,1.00000000e+00,3.58498499e-02
4.36000000e-09,1.00000000e+00,3.09042220e-02
4.37000000e-09,1.00000000e+00,2.66849274e-02
4.38000000e-09,1.00000000e+00,2.31103025e-02
4.39000000e-09,1.00000000e+00,1.98068232e-02
4.40000000e-09,8.88888889e-01,1.68603042e-02
4.41000000e-09,7.77777778e-01,1.44970421e-02
4.42000000e-09,6.66666667e-01,1.36512496e-02
4.43000000e-09,5.55555556e-01,1.47699141e-02
