TIME,V(VI),V(VO)
0.00000000e+00,0.00000000e+00,9.99987771e-01
1.00000000e-11,2.00000000e-01,1.00044126e+00
2.00000000e-11,4.00000000e-01,9.97570460e-01
3.00000000e-11,6.00000000e-01,9.84736002e-01
4.00000000e-11,8.00000000e-01,9.55461821e-01
5.00000000e-11,1.00000000e+00,9.07948322e-01
6.00000000e-11,1.00000000e+00,8.50637961e-01
7.00000000e-11,1.00000000e+00,7.94128438e-01
8.00000000e-11,1.00000000e+00,7.38067774e-01
9.00000000e-11,1.00000000e+00,6.83382879e-01
1.00000000e-10,1.00000000e+00,6.29648429e-01
1.10000000e-10,1.00000000e+00,5.76867314e-01
1.20000000e-10,1.00000000e+00,5.26359620e-01
1.30000000e-10,1.00000000e+00,4.77526117e-01
1.40000000e-10,1.00000000e+00,4.30293187e-01
1.50000000e-10,1.00000000e+00,3.86496277e-01
1.60000000e-10,1.00000000e+00,3.45168995e-01
1.70000000e-10,1.00000000e+00,3.06055791e-01
1.80000000e-10,1.00000000e+00,2.71081393e-01
1.90000000e-10,1.00000000e+00,2.38963742e-01
2.00000000e-10,1.00000000e+00,2.09229308e-01
2.10000000e-10,1.00000000e+00,1.83438303e-01
2.20000000e-10,1.00000000e+00,1.60309361e-01
2.30000000e-10,1.00000000e+00,1.39247132e-01
2.40000000e-10,1.00000000e+00,1.21305582e-01
2.50000000e-10,1.00000000e+00,1.05496945e-01
2.60000000e-10,1.00000000e+00,9.12379218e-02
2.70000000e-10,1.00000000e+00,7.91804112e-02
2.80000000e-10,1.00000000e+00,6.86919755e-02
2.90000000e-10,1.00000000e+00,5.92764687e-02
3.00000000e-10,1.00000000e+00,5.13218600e-02
3.10000000e-10,1.00000000e+00,4.44716022e-02
3.20000000e-10,1.00000000e+00,3.83351155e-02
3.30000000e-10,1.00000000e+00,3.31380913e-02
3.40000000e-10,1.00000000e+00,2.87557335e-02
3.50000000e-10,1.00000000e+00,2.46367675e-02
3.60000000e-10,8.00000000e-01,2.08736100e-02
3.70000000e-10,6.00000000e-01,1.81851188e-02
3.80000000e-10,4.00000000e-01,2.09719094e-02
3.90000000e-10,2.00000000e-01,3.39975596e-02
4.00000000e-10,-4.44089210e-16,6.15518661e-02
4.10000000e-10,0.00000000e+00,9.98000166e-02
4.20000000e-10,0.00000000e+00,1.37501553e-01
4.30000000e-10,0.00000000e+00,1.74335948e-01
4.40000000e-10,0.00000000e+00,2.11154670e-01
4.50000000e-10,0.00000000e+00,2.46766269e-01
4.60000000e-10,0.00000000e+00,2.82345053e-01
4.70000000e-10,0.00000000e+00,3.16637419e-01
4.80000000e-10,0.00000000e+00,3.50875182e-01
4.90000000e-10,0.00000000e+00,3.83740589e-01
5.00000000e-10,0.00000000e+00,4.16526321e-01
5.10000000e-10,0.00000000e+00,4.47849370e-01
5.20000000e-10,0.00000000e+00,4.79064304e-01
5.30000000e-10,0.00000000e+00,5.08725294e-01
5.40000000e-10,0.00000000e+00,5.38246507e-01
5.50000000e-10,0.00000000e+00,5.66125544e-01
5.60000000e-10,0.00000000e+00,5.93830338e-01
5.70000000e-10,0.00000000e+00,6.19811981e-01
5.80000000e-10,0.00000000e+00,6.45582790e-01
5.90000000e-10,0.00000000e+00,6.69560776e-01
6.00000000e-10,0.00000000e+00,6.93290371e-01
6.10000000e-10,0.00000000e+00,7.15174276e-01
6.20000000e-10,0.00000000e+00,7.36773330e-01
6.30000000e-10,0.00000000e+00,7.56499397e-01
6.40000000e-10,0.00000000e+00,7.75908432e-01
6.50000000e-10,0.00000000e+00,7.93454075e-01
6.60000000e-10,0.00000000e+00,8.10658489e-01
6.70000000e-10,0.00000000e+00,8.26055219e-01
6.80000000e-10,0.00000000e+00,8.41097430e-01
6.90000000e-10,0.00000000e+00,8.54435191e-01
7.00000000e-10,0.00000000e+00,8.67417269e-01
7.10000000e-10,0.00000000e+00,8.78838377e-01
7.20000000e-10,0.00000000e+00,8.89913715e-01
7.30000000e-10,0.00000000e+00,8.99596987e-01
7.40000000e-10,0.00000000e+00,9.08953178e-01
7.50000000e-10,0.00000000e+00,9.17096217e-01
7.60000000e-10,0.00000000e+00,9.24936771e-01
7.70000000e-10,0.00000000e+00,9.31739899e-01
7.80000000e-10,0.00000000e+00,9.38268340e-01
7.90000000e-10,0.00000000e+00,9.43922835e-01
8.00000000e-10,0.00000000e+00,9.49331478e-01
8.10000000e-10,0.00000000e+00,9.54012430e-01
8.20000000e-10,0.00000000e+00,9.58475850e-01
8.30000000e-10,0.00000000e+00,9.62338784e-01
8.40000000e-10,0.00000000e+00,9.65937995e-01
8.50000000e-10,0.00000000e+00,9.68856759e-01
8.60000000e-10,0.00000000e+00,9.71775523e-01
8.70000000e-10,0.00000000e+00,9.74694287e-01
8.80000000e-10,0.00000000e+00,9.77233436e-01
8.90000000e-10,0.00000000e+00,9.78912031e-01
9.00000000e-10,0.00000000e+00,9.80590626e-01
9.10000000e-10,0.00000000e+00,9.82269220e-01
9.20000000e-10,0.00000000e+00,9.83947815e-01
9.30000000e-10,0.00000000e+00,9.85626410e-01
9.40000000e-10,0.00000000e+00,9.87305005e-01
9.50000000e-10,0.00000000e+00,9.88983600e-01
9.60000000e-10,0.00000000e+00,9.90355975e-01
9.70000000e-10,0.00000000e+00,9.91183171e-01
9.80000000e-10,0.00000000e+00,9.92010367e-01
9.90000000e-10,0.00000000e+00,9.92837563e-01
1.00000000e-09,0.00000000e+00,9.93664758e-01
1.01000000e-09,2.00000000e-01,9.94799085e-01
1.02000000e-09,4.00000000e-01,9.92476351e-01
1.03000000e-09,6.00000000e-01,9.79639902e-01
1.04000000e-09,8.00000000e-01,9.49354730e-01
1.05000000e-09,1.00000000e+00,9.02244008e-01
1.06000000e-09,1.00000000e+00,8.44996815e-01
1.07000000e-09,1.00000000e+00,7.88560371e-01
1.08000000e-09,1.00000000e+00,7.32651866e-01
1.09000000e-09,1.00000000e+00,6.77933965e-01
1.10000000e-09,1.00000000e+00,6.24388966e-01
1.11000000e-09,1.00000000e+00,5.71938430e-01
1.12000000e-09,1.00000000e+00,5.21212506e-01
1.13000000e-09,1.00000000e+00,4.72766226e-01
1.14000000e-09,1.00000000e+00,4.26149537e-01
1.15000000e-09,1.00000000e+00,3.81789329e-01
1.16000000e-09,1.00000000e+00,3.41124274e-01
1.17000000e-09,1.00000000e+00,3.02892983e-01
1.18000000e-09,1.00000000e+00,2.67130935e-01
1.19000000e-09,1.00000000e+00,2.35745112e-01
1.20000000e-09,1.00000000e+00,2.06996875e-01
1.21000000e-09,1.00000000e+00,1.80686224e-01
1.22000000e-09,1.00000000e+00,1.57875487e-01
1.23000000e-09,1.00000000e+00,1.37728101e-01
1.24000000e-09,1.00000000e+00,1.19538145e-01
1.25000000e-09,1.00000000e+00,1.03709743e-01
1.26000000e-09,1.00000000e+00,9.02073417e-02
1.27000000e-09,1.00000000e+00,7.80918161e-02
1.28000000e-09,1.00000000e+00,6.73967234e-02
1.29000000e-09,1.00000000e+00,5.85685837e-02
1.30000000e-09,1.00000000e+00,5.06607745e-02
1.31000000e-09,1.00000000e+00,4.36364328e-02
1.32000000e-09,1.00000000e+00,3.78409523e-02
1.33000000e-09,1.00000000e+00,3.27355252e-02
1.34000000e-09,1.00000000e+00,2.81877470e-02
1.35000000e-09,1.00000000e+00,2.43040039e-02
1.36000000e-09,8.00000000e-01,2.05868863e-02
1.37000000e-09,6.00000000e-01,1.79191152e-02
1.38000000e-09,4.00000000e-01,2.08148949e-02
1.39000000e-09,2.00000000e-01,3.38281613e-02
1.40000000e-09,-4.44089210e-16,6.13617746e-02
1.41000000e-09,0.00000000e+00,9.96124483e-02
1.42000000e-09,0.00000000e+00,1.37316340e-01
1.43000000e-09,0.00000000e+00,1.74153622e-01
1.44000000e-09,0.00000000e+00,2.10978151e-01
1.45000000e-09,0.00000000e+00,2.46589887e-01
1.46000000e-09,0.00000000e+00,2.82176179e-01
1.47000000e-09,0.00000000e+00,3.16467425e-01
1.48000000e-09,0.00000000e+00,3.50714643e-01
1.49000000e-09,0.00000000e+00,3.83577466e-01
1.50000000e-09,0.00000000e+00,4.16374859e-01
1.51000000e-09,0.00000000e+00,4.47693637e-01
1.52000000e-09,0.00000000e+00,4.78922679e-01
1.53000000e-09,0.00000000e+00,5.08577488e-01
1.54000000e-09,0.00000000e+00,5.38115470e-01
1.55000000e-09,0.00000000e+00,5.65986200e-01
1.56000000e-09,0.00000000e+00,5.93710584e-01
1.57000000e-09,0.00000000e+00,6.19681614e-01
1.58000000e-09,0.00000000e+00,6.45474924e-01
1.59000000e-09,0.00000000e+00,6.69439862e-01
1.60000000e-09,0.00000000e+00,6.93194845e-01
1.61000000e-09,0.00000000e+00,7.15063233e-01
1.62000000e-09,0.00000000e+00,7.36690338e-01
1.63000000e-09,0.00000000e+00,7.56398552e-01
1.64000000e-09,0.00000000e+00,7.75837786e-01
1.65000000e-09,0.00000000e+00,7.93363603e-01
1.66000000e-09,0.00000000e+00,8.10599551e-01
1.67000000e-09,0.00000000e+00,8.25975072e-01
1.68000000e-09,0.00000000e+00,8.41049153e-01
1.69000000e-09,0.00000000e+00,8.54365057e-01
1.70000000e-09,0.00000000e+00,8.67378319e-01
1.71000000e-09,0.00000000e+00,8.78777679e-01
1.72000000e-09,0.00000000e+00,8.89882666e-01
1.73000000e-09,0.00000000e+00,8.99544950e-01
1.74000000e-09,0.00000000e+00,9.08928651e-01
1.75000000e-09,0.00000000e+00,9.17051951e-01
1.76000000e-09,0.00000000e+00,9.24917523e-01
1.77000000e-09,0.00000000e+00,9.31702472e-01
1.78000000e-09,0.00000000e+00,9.38253307e-01
1.79000000e-09,0.00000000e+00,9.43891339e-01
1.80000000e-09,0.00000000e+00,9.49319777e-01
1.81000000e-09,0.00000000e+00,9.53986018e-01
1.82000000e-09,0.00000000e+00,9.58466767e-01
1.83000000e-09,0.00000000e+00,9.62316694e-01
1.84000000e-09,0.00000000e+00,9.65941719e-01
1.85000000e-09,0.00000000e+00,9.68849786e-01
1.86000000e-09,0.00000000e+00,9.71757853e-01
1.87000000e-09,0.00000000e+00,9.74665920e-01
1.88000000e-09,0.00000000e+00,9.77250144e-01
1.89000000e-09,0.00000000e+00,9.78921661e-01
1.90000000e-09,0.00000000e+00,9.80593178e-01
1.91000000e-09,0.00000000e+00,9.82264695e-01
1.92000000e-09,0.00000000e+00,9.83936212e-01
1.93000000e-09,0.00000000e+00,9.85607729e-01
1.94000000e-09,0.00000000e+00,9.87279247e-01
1.95000000e-09,0.00000000e+00,9.88950764e-01
1.96000000e-09,0.00000000e+00,9.90361437e-01
1.97000000e-09,0.00000000e+00,9.91186351e-01
1.98000000e-09,0.00000000e+00,9.92011265e-01
1.99000000e-09,0.00000000e+00,9.92836179e-01
2.00000000e-09,0.00000000e+00,9.93661092e-01
2.01000000e-09,2.00000000e-01,9.94795729e-01
2.02000000e-09,4.00000000e-01,9.92473189e-01
2.03000000e-09,6.00000000e-01,9.79636822e-01
2.04000000e-09,8.00000000e-01,9.49351662e-01
2.05000000e-09,1.00000000e+00,9.02240970e-01
2.06000000e-09,1.00000000e+00,8.44993811e-01
2.07000000e-09,1.00000000e+00,7.88557407e-01
2.08000000e-09,1.00000000e+00,7.32648948e-01
2.09000000e-09,1.00000000e+00,6.77931101e-01
2.10000000e-09,1.00000000e+00,6.24386170e-01
2.11000000e-09,1.00000000e+00,5.71935713e-01
2.12000000e-09,1.00000000e+00,5.21209877e-01
2.13000000e-09,1.00000000e+00,4.72763711e-01
2.14000000e-09,1.00000000e+00,4.26147151e-01
2.15000000e-09,1.00000000e+00,3.81787071e-01
2.16000000e-09,1.00000000e+00,3.41122175e-01
2.17000000e-09,1.00000000e+00,3.02891050e-01
2.18000000e-09,1.00000000e+00,2.67129177e-01
2.19000000e-09,1.00000000e+00,2.35743501e-01
2.20000000e-09,1.00000000e+00,2.06995433e-01
2.21000000e-09,1.00000000e+00,1.80684947e-01
2.22000000e-09,1.00000000e+00,1.57874335e-01
2.23000000e-09,1.00000000e+00,1.37727091e-01
2.24000000e-09,1.00000000e+00,1.19537267e-01
2.25000000e-09,1.00000000e+00,1.03708957e-01
2.26000000e-09,1.00000000e+00,9.02066606e-02
2.27000000e-09,1.00000000e+00,7.80912292e-02
2.28000000e-09,1.00000000e+00,6.73962009e-02
2.29000000e-09,1.00000000e+00,5.85681335e-02
2.30000000e-09,1.00000000e+00,5.06603888e-02
2.31000000e-09,1.00000000e+00,4.36361039e-02
2.32000000e-09,1.00000000e+00,3.78406579e-02
2.33000000e-09,1.00000000e+00,3.27352737e-02
2.34000000e-09,1.00000000e+00,2.81875331e-02
2.35000000e-09,1.00000000e+00,2.43038159e-02
2.36000000e-09,8.00000000e-01,2.05867221e-02
2.37000000e-09,6.00000000e-01,1.79189685e-02
2.38000000e-09,4.00000000e-01,2.08147602e-02
2.39000000e-09,2.00000000e-01,3.38280302e-02
2.40000000e-09,-4.66293670e-15,6.13616442e-02
2.41000000e-09,0.00000000e+00,9.96123197e-02
2.42000000e-09,0.00000000e+00,1.37316213e-01
2.43000000e-09,0.00000000e+00,1.74153498e-01
2.44000000e-09,0.00000000e+00,2.10978029e-01
2.45000000e-09,0.00000000e+00,2.46589767e-01
2.46000000e-09,0.00000000e+00,2.82176061e-01
2.47000000e-09,0.00000000e+00,3.16467309e-01
2.48000000e-09,0.00000000e+00,3.50714530e-01
2.49000000e-09,0.00000000e+00,3.83577355e-01
2.50000000e-09,0.00000000e+00,4.16374750e-01
2.51000000e-09,0.00000000e+00,4.47693531e-01
2.52000000e-09,0.00000000e+00,4.78922577e-01
2.53000000e-09,0.00000000e+00,5.08577387e-01
2.54000000e-09,0.00000000e+00,5.38115373e-01
2.55000000e-09,0.00000000e+00,5.65986106e-01
2.56000000e-09,0.00000000e+00,5.93710494e-01
2.57000000e-09,0.00000000e+00,6.19681526e-01
2.58000000e-09,0.00000000e+00,6.45474841e-01
2.59000000e-09,0.00000000e+00,6.69439781e-01
2.60000000e-09,0.00000000e+00,6.93194768e-01
2.61000000e-09,0.00000000e+00,7.15063159e-01
2.62000000e-09,0.00000000e+00,7.36690268e-01
2.63000000e-09,0.00000000e+00,7.56398486e-01
2.64000000e-09,0.00000000e+00,7.75837724e-01
2.65000000e-09,0.00000000e+00,7.93363544e-01
2.66000000e-09,0.00000000e+00,8.10599497e-01
2.67000000e-09,0.00000000e+00,8.25975020e-01
2.68000000e-09,0.00000000e+00,8.41049105e-01
2.69000000e-09,0.00000000e+00,8.54365013e-01
2.70000000e-09,0.00000000e+00,8.67378279e-01
2.71000000e-09,0.00000000e+00,8.78777641e-01
2.72000000e-09,0.00000000e+00,8.89882632e-01
2.73000000e-09,0.00000000e+00,8.99544918e-01
2.74000000e-09,0.00000000e+00,9.08928622e-01
2.75000000e-09,0.00000000e+00,9.17051924e-01
2.76000000e-09,0.00000000e+00,9.24917499e-01
2.77000000e-09,0.00000000e+00,9.31702449e-01
2.78000000e-09,0.00000000e+00,9.38253287e-01
2.79000000e-09,0.00000000e+00,9.43891320e-01
2.80000000e-09,0.00000000e+00,9.49319761e-01
2.81000000e-09,0.00000000e+00,9.53986003e-01
2.82000000e-09,0.00000000e+00,9.58466753e-01
2.83000000e-09,0.00000000e+00,9.62316681e-01
2.84000000e-09,0.00000000e+00,9.65941708e-01
2.85000000e-09,0.00000000e+00,9.68849776e-01
2.86000000e-09,0.00000000e+00,9.71757843e-01
2.87000000e-09,0.00000000e+00,9.74665911e-01
2.88000000e-09,0.00000000e+00,9.77250137e-01
2.89000000e-09,0.00000000e+00,9.78921655e-01
2.90000000e-09,0.00000000e+00,9.80593172e-01
2.91000000e-09,0.00000000e+00,9.82264689e-01
2.92000000e-09,0.00000000e+00,9.83936207e-01
2.93000000e-09,0.00000000e+00,9.85607724e-01
2.94000000e-09,0.00000000e+00,9.87279242e-01
2.95000000e-09,0.00000000e+00,9.88950759e-01
2.96000000e-09,0.00000000e+00,9.90361434e-01
2.97000000e-09,0.00000000e+00,9.91186348e-01
2.98000000e-09,0.00000000e+00,9.92011262e-01
2.99000000e-09,0.00000000e+00,9.92836176e-01
3.00000000e-09,0.00000000e+00,9.93661090e-01
3.01000000e-09,2.00000000e-01,9.94795727e-01
3.02000000e-09,4.00000000e-01,9.92473188e-01
3.03000000e-09,6.00000000e-01,9.79636820e-01
3.04000000e-09,8.00000000e-01,9.49351661e-01
3.05000000e-09,1.00000000e+00,9.02240968e-01
3.06000000e-09,1.00000000e+00,8.44993809e-01
3.07000000e-09,1.00000000e+00,7.88557406e-01
3.08000000e-09,1.00000000e+00,7.32648946e-01
3.09000000e-09,1.00000000e+00,6.77931099e-01
3.10000000e-09,1.00000000e+00,6.24386168e-01
3.11000000e-09,1.00000000e+00,5.71935711e-01
3.12000000e-09,1.00000000e+00,5.21209875e-01
3.13000000e-09,1.00000000e+00,4.72763710e-01
3.14000000e-09,1.00000000e+00,4.26147150e-01
3.15000000e-09,1.00000000e+00,3.81787070e-01
3.16000000e-09,1.00000000e+00,3.41122174e-01
3.17000000e-09,1.00000000e+00,3.02891049e-01
3.18000000e-09,1.00000000e+00,2.67129175e-01
3.19000000e-09,1.00000000e+00,2.35743500e-01
3.20000000e-09,1.00000000e+00,2.06995433e-01
3.21000000e-09,1.00000000e+00,1.80684946e-01
3.22000000e-09,1.00000000e+00,1.57874335e-01
3.23000000e-09,1.00000000e+00,1.37727091e-01
3.24000000e-09,1.00000000e+00,1.19537266e-01
3.25000000e-09,1.00000000e+00,1.03708957e-01
3.26000000e-09,1.00000000e+00,9.02066602e-02
3.27000000e-09,1.00000000e+00,7.80912289e-02
3.28000000e-09,1.00000000e+00,6.73962006e-02
3.29000000e-09,1.00000000e+00,5.85681333e-02
3.30000000e-09,1.00000000e+00,5.06603885e-02
3.31000000e-09,1.00000000e+00,4.36361037e-02
3.32000000e-09,1.00000000e+00,3.78406577e-02
3.33000000e-09,1.00000000e+00,3.27352736e-02
3.34000000e-09,1.00000000e+00,2.81875330e-02
3.35000000e-09,1.00000000e+00,2.43038158e-02
3.36000000e-09,8.00000000e-01,2.05867220e-02
3.37000000e-09,6.00000000e-01,1.79189684e-02
3.38000000e-09,4.00000000e-01,2.08147601e-02
3.39000000e-09,2.00000000e-01,3.38280301e-02
3.40000000e-09,3.66373598e-15,6.13616441e-02
3.41000000e-09,0.00000000e+00,9.96123196e-02
3.42000000e-09,0.00000000e+00,1.37316213e-01
3.43000000e-09,0.00000000e+00,1.74153498e-01
3.44000000e-09,0.00000000e+00,2.10978029e-01
3.45000000e-09,0.00000000e+00,2.46589767e-01
3.46000000e-09,0.00000000e+00,2.82176061e-01
3.47000000e-09,0.00000000e+00,3.16467309e-01
3.48000000e-09,0.00000000e+00,3.50714530e-01
3.49000000e-09,0.00000000e+00,3.83577355e-01
3.50000000e-09,0.00000000e+00,4.16374750e-01
3.51000000e-09,0.00000000e+00,4.47693531e-01
3.52000000e-09,0.00000000e+00,4.78922577e-01
3.53000000e-09,0.00000000e+00,5.08577387e-01
3.54000000e-09,0.00000000e+00,5.38115373e-01
3.55000000e-09,0.00000000e+00,5.65986106e-01
3.56000000e-09,0.00000000e+00,5.93710494e-01
3.57000000e-09,0.00000000e+00,6.19681526e-01
3.58000000e-09,0.00000000e+00,6.45474841e-01
3.59000000e-09,0.00000000e+00,6.69439781e-01
3.60000000e-09,0.00000000e+00,6.93194768e-01
3.61000000e-09,0.00000000e+00,7.15063159e-01
3.62000000e-09,0.00000000e+00,7.36690268e-01
3.63000000e-09,0.00000000e+00,7.56398486e-01
3.64000000e-09,0.00000000e+00,7.75837724e-01
3.65000000e-09,0.00000000e+00,7.93363543e-01
3.66000000e-09,0.00000000e+00,8.10599497e-01
3.67000000e-09,0.00000000e+00,8.25975020e-01
3.68000000e-09,0.00000000e+00,8.41049105e-01
3.69000000e-09,0.00000000e+00,8.54365013e-01
3.70000000e-09,0.00000000e+00,8.67378279e-01
3.71000000e-09,0.00000000e+00,8.78777641e-01
3.72000000e-09,0.00000000e+00,8.89882632e-01
3.73000000e-09,0.00000000e+00,8.99544918e-01
3.74000000e-09,0.00000000e+00,9.08928622e-01
3.75000000e-09,0.00000000e+00,9.17051924e-01
3.76000000e-09,0.00000000e+00,9.24917499e-01
3.77000000e-09,0.00000000e+00,9.31702449e-01
3.78000000e-09,0.00000000e+00,9.38253287e-01
3.79000000e-09,0.00000000e+00,9.43891320e-01
3.80000000e-09,0.00000000e+00,9.49319761e-01
3.81000000e-09,0.00000000e+00,9.53986003e-01
3.82000000e-09,0.00000000e+00,9.58466753e-01
3.83000000e-09,0.00000000e+00,9.62316681e-01
3.84000000e-09,0.00000000e+00,9.65941708e-01
3.85000000e-09,0.00000000e+00,9.68849776e-01
3.86000000e-09,0.00000000e+00,9.71757843e-01
3.87000000e-09,0.00000000e+00,9.74665911e-01
3.88000000e-09,0.00000000e+00,9.77250137e-01
3.89000000e-09,0.00000000e+00,9.78921655e-01
3.90000000e-09,0.00000000e+00,9.80593172e-01
3.91000000e-09,0.00000000e+00,9.82264689e-01
3.92000000e-09,0.00000000e+00,9.83936207e-01
3.93000000e-09,0.00000000e+00,9.85607724e-01
3.94000000e-09,0.00000000e+00,9.87279242e-01
3.95000000e-09,0.00000000e+00,9.88950759e-01
3.96000000e-09,0.00000000e+00,9.90361434e-01
3.97000000e-09,0.00000000e+00,9.91186348e-01
3.98000000e-09,0.00000000e+00,9.92011262e-01
3.99000000e-09,0.00000000e+00,9.92836176e-01
4.00000000e-09,0.00000000e+00,9.93661090e-01
4.01000000e-09,2.00000000e-01,9.94795727e-01
4.02000000e-09,4.00000000e-01,9.92473188e-01
4.03000000e-09,6.00000000e-01,9.79636820e-01
4.04000000e-09,8.00000000e-01,9.49351661e-01
4.05000000e-09,1.00000000e+00,9.02240968e-01
4.06000000e-09,1.00000000e+00,8.44993809e-01
4.07000000e-09,1.00000000e+00,7.88557406e-01
4.08000000e-09,1.00000000e+00,7.32648946e-01
4.09000000e-09,1.00000000e+00,6.77931099e-01
4.10000000e-09,1.00000000e+00,6.24386168e-01
4.11000000e-09,1.00000000e+00,5.71935711e-01
4.12000000e-09,1.00000000e+00,5.21209875e-01
4.13000000e-09,1.00000000e+00,4.72763710e-01
4.14000000e-09,1.00000000e+00,4.26147150e-01
4.15000000e-09,1.00000000e+00,3.81787070e-01
4.16000000e-09,1.00000000e+00,3.41122174e-01
4.17000000e-09,1.00000000e+00,3.02891049e-01
4.18000000e-09,1.00000000e+00,2.67129175e-01
4.19000000e-09,1.00000000e+00,2.35743500e-01
4.20000000e-09,1.00000000e+00,2.06995433e-01
4.21000000e-09,1.00000000e+00,1.80684946e-01
4.22000000e-09,1.00000000e+00,1.57874335e-01
4.23000000e-09,1.00000000e+00,1.37727091e-01
4.24000000e-09,1.00000000e+00,1.19537266e-01
4.25000000e-09,1.00000000e+00,1.03708957e-01
4.26000000e-09,1.00000000e+00,9.02066602e-02
4.27000000e-09,1.00000000e+00,7.80912289e-02
4.28000000e-09,1.00000000e+00,6.73962006e-02
4.29000000e-09,1.00000000e+00,5.85681333e-02
4.30000000e-09,1.00000000e+00,5.06603885e-02
4.31000000e-09,1.00000000e+00,4.36361037e-02
4.32000000e-09,1.00000000e+00,3.78406577e-02
4.33000000e-09,1.00000000e+00,3.27352736e-02
4.34000000e-09,1.00000000e+00,2.81875330e-02
4.35000000e-09,1.00000000e+00,2.43038158e-02
4.36000000e-09,8.00000000e-01,2.05867220e-02
4.37000000e-09,6.00000000e-01,1.79189684e-02
4.38000000e-09,4.00000000e-01,2.08147601e-02
4.39000000e-09,2.00000000e-01,3.38280301e-02
4.40000000e-09,1.18793864e-14,6.13616441e-02
4.41000000e-09,0.00000000e+00,9.96123196e-02
4.42000000e-09,0.00000000e+00,1.37316213e-01
4.43000000e-09,0.00000000e+00,1.74153498e-01
