Index       TIME          {V(VOUT)+1.0}      {V(IN)+1.0}          V(1)       
0        0.00000000e+00    1.00000000e+00    6.00000000e+00    5.00000000e+00
1        7.50000000e-09    1.00000000e+00    6.00000000e+00    5.00000000e+00
2        2.25000000e-08    1.00000000e+00    6.00000000e+00    5.00000000e+00
3        5.25000000e-08    1.00000000e+00    6.00000000e+00    5.00000000e+00
4        1.12500000e-07    1.00000000e+00    6.00000000e+00    5.00000000e+00
5        2.32500000e-07    1.00000000e+00    6.00000000e+00    5.00000000e+00
6        3.82500000e-07    1.00000000e+00    6.00000000e+00    5.00000000e+00
7        5.32500000e-07    1.00000000e+00    6.00000000e+00    5.00000000e+00
8        6.82500000e-07    1.00000000e+00    6.00000000e+00    5.00000000e+00
9        8.32500000e-07    1.00000000e+00    6.00000000e+00    5.00000000e+00
10       9.82500000e-07    1.00000000e+00    6.00000000e+00    5.00000000e+00
11       1.13250000e-06    1.00000000e+00    6.00000000e+00    5.00000000e+00
12       1.28250000e-06    1.00000000e+00    6.00000000e+00    5.00000000e+00
13       1.43250000e-06    1.00000000e+00    6.00000000e+00    5.00000000e+00
14       1.50000000e-06    1.00000000e+00    6.00000000e+00    5.00000000e+00
15       1.50003125e-06    9.99703061e-01    5.99908073e+00    4.96875000e+00
16       1.50009375e-06    9.98412094e-01    5.99387714e+00    4.90625000e+00
17       1.50015625e-06    9.96869893e-01    5.98705301e+00    4.84375000e+00
18       1.50028125e-06    9.92985973e-01    5.96430887e+00    4.71875000e+00
19       1.50040625e-06    9.88882024e-01    5.93053948e+00    4.59375000e+00
20       1.50053125e-06    9.84991315e-01    5.88699401e+00    4.46875000e+00
21       1.50078125e-06    9.77949409e-01    5.77507735e+00    4.21875000e+00
22       1.50103125e-06    9.71665136e-01    5.63509362e+00    3.96875000e+00
23       1.50128125e-06    9.65818049e-01    5.47272506e+00    3.71875000e+00
24       1.50153125e-06    9.60135130e-01    5.29250100e+00    3.46875000e+00
25       1.50178125e-06    9.54373248e-01    5.09803070e+00    3.21875000e+00
26       1.50228125e-06    9.29841879e-01    4.61544375e+00    2.71875000e+00
27       1.50268249e-06    9.14278902e-01    4.17253861e+00    2.31751149e+00
28       1.50274209e-06    9.16873118e-01    4.11287904e+00    2.25790546e+00
29       1.50280170e-06    9.20039252e-01    4.05307384e+00    2.19829944e+00
30       1.50292091e-06    9.31050725e-01    3.93432245e+00    2.07908738e+00
31       1.50304012e-06    9.49703511e-01    3.81690407e+00    1.95987532e+00
32       1.50315934e-06    9.77924012e-01    3.70095821e+00    1.84066326e+00
33       1.50327855e-06    1.01817111e+00    3.58671700e+00    1.72145121e+00
34       1.50339776e-06    1.07377982e+00    3.47438431e+00    1.60223915e+00
35       1.50351697e-06    1.15002150e+00    3.36420557e+00    1.48302709e+00
36       1.50363618e-06    1.25753461e+00    3.25591810e+00    1.36381504e+00
37       1.50365330e-06    1.27683249e+00    3.24047545e+00    1.34669784e+00
38       1.50368754e-06    1.31901122e+00    3.20931055e+00    1.31246345e+00
39       1.50372177e-06    1.36927537e+00    3.17742878e+00    1.27822906e+00
40       1.50375601e-06    1.43596580e+00    3.14254072e+00    1.24399467e+00
41       1.50379024e-06    1.52889199e+00    3.10270449e+00    1.20976028e+00
42       1.50382447e-06    1.64098756e+00    3.06112912e+00    1.17552589e+00
43       1.50385871e-06    1.76391704e+00    3.01986729e+00    1.14129150e+00
44       1.50392718e-06    2.04148135e+00    2.93838375e+00    1.07282272e+00
45       1.50399565e-06    2.35937557e+00    2.85808997e+00    1.00435394e+00
46       1.50406411e-06    2.71455716e+00    2.77894182e+00    9.35885156e-01
47       1.50413258e-06    3.10306842e+00    2.70077136e+00    8.67416375e-01
48       1.50420105e-06    3.52073356e+00    2.62319241e+00    7.98947594e-01
49       1.50426952e-06    3.96392219e+00    2.54530369e+00    7.30478813e-01
50       1.50427763e-06    4.01811517e+00    2.53605178e+00    7.22372329e-01
51       1.50429384e-06    4.11814565e+00    2.52196636e+00    7.06159360e-01
52       1.50431005e-06    4.20246751e+00    2.51164701e+00    6.89946390e-01
53       1.50432627e-06    4.27542620e+00    2.50374416e+00    6.73733421e-01
54       1.50435869e-06    4.40216664e+00    2.49088266e+00    6.41307483e-01
55       1.50439112e-06    4.51096402e+00    2.47993298e+00    6.08881545e-01
56       1.50442354e-06    4.60739817e+00    2.46903442e+00    5.76455607e-01
57       1.50445597e-06    4.69375206e+00    2.45755988e+00    5.44029668e-01
58       1.50448840e-06    4.77167690e+00    2.44491560e+00    5.11603730e-01
59       1.50452082e-06    4.84223980e+00    2.43097121e+00    4.79177792e-01
60       1.50458567e-06    4.96472163e+00    2.39853634e+00    4.14325916e-01
61       1.50465053e-06    5.06601819e+00    2.35999499e+00    3.49474039e-01
62       1.50471538e-06    5.15038295e+00    2.31628555e+00    2.84622163e-01
63       1.50478023e-06    5.22129001e+00    2.26902014e+00    2.19770286e-01
64       1.50484508e-06    5.28132232e+00    2.21900741e+00    1.54918410e-01
65       1.50490993e-06    5.33236241e+00    2.16699886e+00    9.00665334e-02
66       1.50497479e-06    5.37601154e+00    2.11350778e+00    2.52146570e-02
67       1.50500000e-06    5.39123682e+00    2.09242646e+00    4.79616347e-14
68       1.50501297e-06    5.39869385e+00    2.08168537e+00    0.00000000e+00
69       1.50502464e-06    5.40530647e+00    2.07215691e+00    0.00000000e+00
70       1.50504799e-06    5.41835284e+00    2.05339923e+00    0.00000000e+00
71       1.50509468e-06    5.44328274e+00    2.01709004e+00    0.00000000e+00
72       1.50518807e-06    5.48792817e+00    1.94781819e+00    0.00000000e+00
73       1.50528146e-06    5.52580269e+00    1.88227055e+00    0.00000000e+00
74       1.50537484e-06    5.55793727e+00    1.82041701e+00    0.00000000e+00
75       1.50556162e-06    5.60900607e+00    1.70745718e+00    0.00000000e+00
76       1.50574839e-06    5.64669083e+00    1.60829464e+00    0.00000000e+00
77       1.50593516e-06    5.67525712e+00    1.52193673e+00    0.00000000e+00
78       1.50612194e-06    5.69742756e+00    1.44717517e+00    0.00000000e+00
79       1.50630871e-06    5.71497907e+00    1.38269734e+00    0.00000000e+00
80       1.50668226e-06    5.74073328e+00    1.27915123e+00    0.00000000e+00
81       1.50705580e-06    5.75787089e+00    1.20316639e+00    0.00000000e+00
82       1.50742935e-06    5.76965583e+00    1.14767996e+00    0.00000000e+00
83       1.50780290e-06    5.77788459e+00    1.10724933e+00    0.00000000e+00
84       1.50854999e-06    5.78802248e+00    1.05551034e+00    0.00000000e+00
85       1.51004418e-06    5.79614337e+00    1.01229206e+00    0.00000000e+00
86       1.51303255e-06    5.79867262e+00    9.98508365e-01    0.00000000e+00
87       1.51567837e-06    5.79838573e+00    1.00009031e+00    0.00000000e+00
88       1.51832419e-06    5.79840107e+00    9.99995505e-01    0.00000000e+00
89       1.52097002e-06    5.79840198e+00    9.99999188e-01    0.00000000e+00
90       1.52626166e-06    5.79840032e+00    1.00000105e+00    0.00000000e+00
91       1.53684494e-06    5.79840192e+00    9.99998893e-01    0.00000000e+00
92       1.55801150e-06    5.79840036e+00    1.00000113e+00    0.00000000e+00
93       1.60034463e-06    5.79840190e+00    9.99998860e-01    0.00000000e+00
94       1.68501089e-06    5.79840037e+00    1.00000114e+00    0.00000000e+00
95       1.85434341e-06    5.79840189e+00    9.99998854e-01    0.00000000e+00
96       2.15434341e-06    5.79840038e+00    1.00000115e+00    0.00000000e+00
97       2.45434341e-06    5.79840189e+00    9.99998851e-01    0.00000000e+00
98       2.75434341e-06    5.79840038e+00    1.00000115e+00    0.00000000e+00
99       3.00500000e-06    5.79840189e+00    9.99998848e-01    0.00000000e+00
100      3.00503125e-06    5.79884679e+00    1.00110189e+00    3.12500000e-02
101      3.00509375e-06    5.80119280e+00    1.00701050e+00    9.37500000e-02
102      3.00515625e-06    5.80412311e+00    1.01466163e+00    1.56250000e-01
103      3.00528125e-06    5.81210894e+00    1.03942147e+00    2.81250000e-01
104      3.00540625e-06    5.82100221e+00    1.07519074e+00    4.06250000e-01
105      3.00553125e-06    5.82947603e+00    1.12039045e+00    5.31250000e-01
106      3.00578125e-06    5.84385964e+00    1.23438780e+00    7.81250000e-01
107      3.00603125e-06    5.85480454e+00    1.37504696e+00    1.03125000e+00
108      3.00628125e-06    5.86280437e+00    1.53708592e+00    1.28125000e+00
109      3.00653125e-06    5.86838917e+00    1.71630980e+00    1.53125000e+00
110      3.00678125e-06    5.87192732e+00    1.90932674e+00    1.78125000e+00
111      3.00728125e-06    5.88339311e+00    2.35575856e+00    2.28125000e+00
112      3.00773125e-06    5.88167894e+00    2.79148755e+00    2.73125000e+00
113      3.00779859e-06    5.87640094e+00    2.85395044e+00    2.79859231e+00
114      3.00786593e-06    5.86996135e+00    2.91636139e+00    2.86593462e+00
115      3.00800062e-06    5.84995480e+00    3.04007790e+00    3.00061924e+00
116      3.00813530e-06    5.81836143e+00    3.16162607e+00    3.13530386e+00
117      3.00826999e-06    5.77196789e+00    3.28035312e+00    3.26998848e+00
118      3.00840467e-06    5.70716130e+00    3.39573463e+00    3.40467310e+00
119      3.00853936e-06    5.61809978e+00    3.50748252e+00    3.53935772e+00
120      3.00867404e-06    5.49197420e+00    3.61626825e+00    3.67404234e+00
121      3.00873737e-06    5.40624384e+00    3.66745973e+00    3.73736995e+00
122      3.00876636e-06    5.35836729e+00    3.69227943e+00    3.76636172e+00
123      3.00879535e-06    5.29765934e+00    3.72097803e+00    3.79535350e+00
124      3.00882435e-06    5.20310620e+00    3.75806160e+00    3.82434527e+00
125      3.00885044e-06    5.08817692e+00    3.79614539e+00    3.85043786e+00
126      3.00887653e-06    4.96154167e+00    3.83324964e+00    3.87653045e+00
127      3.00890262e-06    4.82832559e+00    3.87044759e+00    3.90262305e+00
128      3.00892872e-06    4.68629109e+00    3.90681029e+00    3.92871564e+00
129      3.00895481e-06    4.53682734e+00    3.94319345e+00    3.95480824e+00
130      3.00898090e-06    4.37956729e+00    3.97885798e+00    3.98090083e+00
131      3.00900699e-06    4.21508278e+00    4.01448963e+00    4.00699343e+00
132      3.00903309e-06    4.04349988e+00    4.04949893e+00    4.03308602e+00
133      3.00908527e-06    3.68068508e+00    4.11894866e+00    4.08527121e+00
134      3.00913746e-06    3.29397423e+00    4.18694535e+00    4.13745640e+00
135      3.00918964e-06    2.88694257e+00    4.25404312e+00    4.18964158e+00
136      3.00924183e-06    2.50211294e+00    4.30955063e+00    4.24182677e+00
137      3.00928879e-06    2.22032088e+00    4.34370608e+00    4.28879344e+00
138      3.00932649e-06    2.03642922e+00    4.36573415e+00    4.32648974e+00
139      3.00936419e-06    1.87936589e+00    4.38792555e+00    4.36418604e+00
140      3.00940188e-06    1.74520568e+00    4.41173912e+00    4.40188234e+00
141      3.00943958e-06    1.63108052e+00    4.43811449e+00    4.43957863e+00
142      3.00947727e-06    1.53472373e+00    4.46733224e+00    4.47727493e+00
143      3.00951497e-06    1.45380019e+00    4.49955257e+00    4.51497123e+00
144      3.00955267e-06    1.38636826e+00    4.53459651e+00    4.55266753e+00
145      3.00959036e-06    1.33043085e+00    4.57239845e+00    4.59036383e+00
146      3.00962806e-06    1.28439830e+00    4.61271418e+00    4.62806012e+00
147      3.00966576e-06    1.24664216e+00    4.65541666e+00    4.66575642e+00
148      3.00970345e-06    1.21593622e+00    4.70029073e+00    4.70345272e+00
149      3.00977885e-06    1.16834293e+00    4.78902762e+00    4.77884532e+00
150      3.00985424e-06    1.13337074e+00    4.87066210e+00    4.85423791e+00
151      3.00992963e-06    1.10755443e+00    4.94560296e+00    4.92963051e+00
152      3.01000000e-06    1.08994971e+00    5.01105671e+00    5.00000000e+00
153      3.01001508e-06    1.08687732e+00    5.02442434e+00    5.00000000e+00
154      3.01003016e-06    1.08391868e+00    5.03742807e+00    5.00000000e+00
155      3.01006031e-06    1.07821523e+00    5.06275756e+00    5.00000000e+00
156      3.01012063e-06    1.06860117e+00    5.11134382e+00    5.00000000e+00
157      3.01024126e-06    1.05484347e+00    5.20171699e+00    5.00000000e+00
158      3.01048251e-06    1.03860554e+00    5.35722762e+00    5.00000000e+00
159      3.01072377e-06    1.02922276e+00    5.48294458e+00    5.00000000e+00
160      3.01096503e-06    1.02250615e+00    5.58419009e+00    5.00000000e+00
161      3.01120628e-06    1.01751704e+00    5.66566211e+00    5.00000000e+00
162      3.01144754e-06    1.01373074e+00    5.73120542e+00    5.00000000e+00
163      3.01168879e-06    1.01082691e+00    5.78391477e+00    5.00000000e+00
164      3.01217131e-06    1.00676077e+00    5.86112174e+00    5.00000000e+00
165      3.01313633e-06    1.00258391e+00    5.94534522e+00    5.00000000e+00
166      3.01410136e-06    1.00100720e+00    5.97850014e+00    5.00000000e+00
167      3.01506638e-06    1.00039428e+00    5.99154107e+00    5.00000000e+00
168      3.01699643e-06    1.00002682e+00    5.99941691e+00    5.00000000e+00
169      3.01892648e-06    1.00000244e+00    5.99995863e+00    5.00000000e+00
170      3.02278658e-06    9.99998840e-01    6.00001193e+00    5.00000000e+00
171      3.02664669e-06    1.00000088e+00    5.99999605e+00    5.00000000e+00
172      3.03436689e-06    9.99999150e-01    6.00000262e+00    5.00000000e+00
173      3.04980729e-06    1.00000085e+00    5.99999779e+00    5.00000000e+00
174      3.08068810e-06    9.99999149e-01    6.00000204e+00    5.00000000e+00
175      3.14244971e-06    1.00000086e+00    5.99999803e+00    5.00000000e+00
176      3.26597294e-06    9.99999147e-01    6.00000193e+00    5.00000000e+00
177      3.51301940e-06    1.00000086e+00    5.99999808e+00    5.00000000e+00
178      3.81301940e-06    9.99999146e-01    6.00000190e+00    5.00000000e+00
179      4.11301940e-06    1.00000086e+00    5.99999811e+00    5.00000000e+00
180      4.41301940e-06    9.99999146e-01    6.00000188e+00    5.00000000e+00
181      4.50000000e-06    1.00000086e+00    5.99999817e+00    5.00000000e+00
182      4.50003125e-06    9.99702594e-01    5.99907975e+00    4.96875000e+00
183      4.50009375e-06    9.98411810e-01    5.99387630e+00    4.90625000e+00
184      4.50015625e-06    9.96869759e-01    5.98705225e+00    4.84375000e+00
185      4.50028125e-06    9.92985963e-01    5.96430820e+00    4.71875000e+00
186      4.50040625e-06    9.88882041e-01    5.93053889e+00    4.59375000e+00
187      4.50053125e-06    9.84991335e-01    5.88699348e+00    4.46875000e+00
188      4.50078125e-06    9.77949428e-01    5.77507693e+00    4.21875000e+00
189      4.50103125e-06    9.71665150e-01    5.63509328e+00    3.96875000e+00
190      4.50128125e-06    9.65818060e-01    5.47272479e+00    3.71875000e+00
191      4.50153125e-06    9.60135139e-01    5.29250078e+00    3.46875000e+00
192      4.50178125e-06    9.54373255e-01    5.09803053e+00    3.21875000e+00
193      4.50228125e-06    9.29841887e-01    4.61544366e+00    2.71875000e+00
194      4.50268249e-06    9.14278911e-01    4.17253854e+00    2.31751147e+00
195      4.50274209e-06    9.16873127e-01    4.11287898e+00    2.25790545e+00
196      4.50280170e-06    9.20039262e-01    4.05307379e+00    2.19829942e+00
197      4.50292091e-06    9.31050736e-01    3.93432240e+00    2.07908737e+00
198      4.50304012e-06    9.49703523e-01    3.81690403e+00    1.95987532e+00
199      4.50315934e-06    9.77924026e-01    3.70095818e+00    1.84066326e+00
200      4.50327855e-06    1.01817112e+00    3.58671698e+00    1.72145121e+00
201      4.50339776e-06    1.07377983e+00    3.47438430e+00    1.60223916e+00
202      4.50351697e-06    1.15002151e+00    3.36420557e+00    1.48302711e+00
203      4.50363618e-06    1.25753462e+00    3.25591810e+00    1.36381505e+00
204      4.50365330e-06    1.27683250e+00    3.24047545e+00    1.34669786e+00
205      4.50368754e-06    1.31901123e+00    3.20931055e+00    1.31246347e+00
206      4.50372177e-06    1.36927538e+00    3.17742878e+00    1.27822908e+00
207      4.50375601e-06    1.43596580e+00    3.14254072e+00    1.24399469e+00
208      4.50379024e-06    1.52889200e+00    3.10270449e+00    1.20976030e+00
209      4.50382447e-06    1.64098757e+00    3.06112913e+00    1.17552591e+00
210      4.50385871e-06    1.76391704e+00    3.01986730e+00    1.14129152e+00
211      4.50392718e-06    2.04148135e+00    2.93838376e+00    1.07282274e+00
212      4.50399565e-06    2.35937556e+00    2.85808997e+00    1.00435396e+00
213      4.50406411e-06    2.71455714e+00    2.77894183e+00    9.35885175e-01
214      4.50413258e-06    3.10306840e+00    2.70077137e+00    8.67416394e-01
215      4.50420105e-06    3.52073354e+00    2.62319242e+00    7.98947613e-01
216      4.50426952e-06    3.96392216e+00    2.54530371e+00    7.30478833e-01
217      4.50427763e-06    4.01811514e+00    2.53605179e+00    7.22372348e-01
218      4.50429384e-06    4.11814563e+00    2.52196638e+00    7.06159378e-01
219      4.50431005e-06    4.20246749e+00    2.51164702e+00    6.89946408e-01
220      4.50432627e-06    4.27542618e+00    2.50374417e+00    6.73733438e-01
221      4.50435869e-06    4.40216663e+00    2.49088267e+00    6.41307499e-01
222      4.50439112e-06    4.51096401e+00    2.47993299e+00    6.08881559e-01
223      4.50442354e-06    4.60739817e+00    2.46903443e+00    5.76455619e-01
224      4.50445597e-06    4.69375206e+00    2.45755989e+00    5.44029680e-01
225      4.50448840e-06    4.77167691e+00    2.44491561e+00    5.11603740e-01
226      4.50452082e-06    4.84223981e+00    2.43097122e+00    4.79177800e-01
227      4.50458567e-06    4.96472164e+00    2.39853634e+00    4.14325921e-01
228      4.50465053e-06    5.06601821e+00    2.35999499e+00    3.49474042e-01
229      4.50471538e-06    5.15038296e+00    2.31628555e+00    2.84622162e-01
230      4.50478023e-06    5.22129002e+00    2.26902014e+00    2.19770283e-01
231      4.50484508e-06    5.28132234e+00    2.21900741e+00    1.54918403e-01
232      4.50490993e-06    5.33236243e+00    2.16699885e+00    9.00665241e-02
233      4.50497479e-06    5.37601156e+00    2.11350777e+00    2.52146447e-02
234      4.50500000e-06    5.39123682e+00    2.09242645e+00    4.79616347e-14
235      4.50501297e-06    5.39869385e+00    2.08168537e+00    0.00000000e+00
236      4.50502464e-06    5.40530648e+00    2.07215691e+00    0.00000000e+00
237      4.50504799e-06    5.41835284e+00    2.05339922e+00    0.00000000e+00
238      4.50509468e-06    5.44328275e+00    2.01709003e+00    0.00000000e+00
239      4.50518807e-06    5.48792818e+00    1.94781818e+00    0.00000000e+00
240      4.50528146e-06    5.52580270e+00    1.88227054e+00    0.00000000e+00
241      4.50537484e-06    5.55793728e+00    1.82041700e+00    0.00000000e+00
242      4.50556162e-06    5.60900608e+00    1.70745716e+00    0.00000000e+00
243      4.50574839e-06    5.64669084e+00    1.60829463e+00    0.00000000e+00
244      4.50593516e-06    5.67525712e+00    1.52193671e+00    0.00000000e+00
245      4.50612194e-06    5.69742757e+00    1.44717515e+00    0.00000000e+00
246      4.50630871e-06    5.71497907e+00    1.38269732e+00    0.00000000e+00
247      4.50668226e-06    5.74073328e+00    1.27915121e+00    0.00000000e+00
248      4.50705580e-06    5.75787089e+00    1.20316637e+00    0.00000000e+00
249      4.50742935e-06    5.76965583e+00    1.14767994e+00    0.00000000e+00
250      4.50780290e-06    5.77788459e+00    1.10724932e+00    0.00000000e+00
251      4.50854999e-06    5.78802248e+00    1.05551034e+00    0.00000000e+00
252      4.51004418e-06    5.79614337e+00    1.01229205e+00    0.00000000e+00
253      4.51303255e-06    5.79867261e+00    9.98508365e-01    0.00000000e+00
254      4.51567837e-06    5.79838573e+00    1.00009031e+00    0.00000000e+00
